UVM_INFO @ 0: reporter [RNTST] Running test apb_test...
UVM_INFO testbench.sv(448) @ 45: uvm_test_top.envh.agh.monh [apb_monitor] TRANSFER=1|PADDR=2|WDATA=12345678|PRDATA=0|prdata_out=0|PSLVERR_out=0|READY=1
UVM_INFO testbench.sv(534) @ 45: uvm_test_top.envh.sbh [apb_scoreboard] PSLVERR MATCHED WITH EXPECTED ERROR
UVM_INFO testbench.sv(545) @ 45: uvm_test_top.envh.sbh [apb_scoreboard] [SB] WRITE addr=2 data=12345678
UVM_INFO testbench.sv(448) @ 75: uvm_test_top.envh.agh.monh [apb_monitor] TRANSFER=1|PADDR=2|WDATA=0|PRDATA=12345678|prdata_out=0|PSLVERR_out=0|READY=1
UVM_INFO testbench.sv(534) @ 75: uvm_test_top.envh.sbh [apb_scoreboard] PSLVERR MATCHED WITH EXPECTED ERROR
UVM_INFO testbench.sv(556) @ 75: uvm_test_top.envh.sbh [apb_scoreboard] [SB] MATCH addr=2 expected=12345678 actual=12345678
UVM_INFO testbench.sv(448) @ 125: uvm_test_top.envh.agh.monh [apb_monitor] TRANSFER=1|PADDR=0|WDATA=ffffffff|PRDATA=0|prdata_out=12345678|PSLVERR_out=0|READY=1
UVM_INFO testbench.sv(534) @ 125: uvm_test_top.envh.sbh [apb_scoreboard] PSLVERR MATCHED WITH EXPECTED ERROR
UVM_INFO testbench.sv(545) @ 125: uvm_test_top.envh.sbh [apb_scoreboard] [SB] WRITE addr=0 data=ffffffff
UVM_INFO testbench.sv(448) @ 175: uvm_test_top.envh.agh.monh [apb_monitor] TRANSFER=1|PADDR=0|WDATA=0|PRDATA=ffffffff|prdata_out=12345678|PSLVERR_out=0|READY=1
UVM_INFO testbench.sv(534) @ 175: uvm_test_top.envh.sbh [apb_scoreboard] PSLVERR MATCHED WITH EXPECTED ERROR
UVM_INFO testbench.sv(556) @ 175: uvm_test_top.envh.sbh [apb_scoreboard] [SB] MATCH addr=0 expected=ffffffff actual=ffffffff
UVM_INFO testbench.sv(448) @ 205: uvm_test_top.envh.agh.monh [apb_monitor] TRANSFER=1|PADDR=ff|WDATA=0|PRDATA=0|prdata_out=ffffffff|PSLVERR_out=0|READY=1
UVM_INFO testbench.sv(534) @ 205: uvm_test_top.envh.sbh [apb_scoreboard] PSLVERR MATCHED WITH EXPECTED ERROR
UVM_INFO testbench.sv(545) @ 205: uvm_test_top.envh.sbh [apb_scoreboard] [SB] WRITE addr=ff data=0
UVM_INFO testbench.sv(448) @ 235: uvm_test_top.envh.agh.monh [apb_monitor] TRANSFER=1|PADDR=ff|WDATA=0|PRDATA=0|prdata_out=ffffffff|PSLVERR_out=0|READY=1
UVM_INFO testbench.sv(534) @ 235: uvm_test_top.envh.sbh [apb_scoreboard] PSLVERR MATCHED WITH EXPECTED ERROR
UVM_INFO testbench.sv(556) @ 235: uvm_test_top.envh.sbh [apb_scoreboard] [SB] MATCH addr=ff expected=0 actual=0
UVM_INFO testbench.sv(448) @ 285: uvm_test_top.envh.agh.monh [apb_monitor] TRANSFER=1|PADDR=c0|WDATA=e41e57a8|PRDATA=0|prdata_out=0|PSLVERR_out=0|READY=1
UVM_INFO testbench.sv(534) @ 285: uvm_test_top.envh.sbh [apb_scoreboard] PSLVERR MATCHED WITH EXPECTED ERROR
UVM_INFO testbench.sv(545) @ 285: uvm_test_top.envh.sbh [apb_scoreboard] [SB] WRITE addr=c0 data=e41e57a8
UVM_INFO testbench.sv(448) @ 315: uvm_test_top.envh.agh.monh [apb_monitor] TRANSFER=1|PADDR=55|WDATA=c86bb208|PRDATA=0|prdata_out=0|PSLVERR_out=0|READY=1
UVM_INFO testbench.sv(534) @ 315: uvm_test_top.envh.sbh [apb_scoreboard] PSLVERR MATCHED WITH EXPECTED ERROR
UVM_INFO testbench.sv(545) @ 315: uvm_test_top.envh.sbh [apb_scoreboard] [SB] WRITE addr=55 data=c86bb208
UVM_INFO testbench.sv(448) @ 345: uvm_test_top.envh.agh.monh [apb_monitor] TRANSFER=1|PADDR=ab|WDATA=bbdfdfdd|PRDATA=0|prdata_out=0|PSLVERR_out=0|READY=1
UVM_INFO testbench.sv(534) @ 345: uvm_test_top.envh.sbh [apb_scoreboard] PSLVERR MATCHED WITH EXPECTED ERROR
UVM_INFO testbench.sv(545) @ 345: uvm_test_top.envh.sbh [apb_scoreboard] [SB] WRITE addr=ab data=bbdfdfdd
UVM_INFO testbench.sv(448) @ 375: uvm_test_top.envh.agh.monh [apb_monitor] TRANSFER=1|PADDR=1f|WDATA=58a13f7|PRDATA=0|prdata_out=0|PSLVERR_out=0|READY=1
UVM_INFO testbench.sv(534) @ 375: uvm_test_top.envh.sbh [apb_scoreboard] PSLVERR MATCHED WITH EXPECTED ERROR
UVM_INFO testbench.sv(545) @ 375: uvm_test_top.envh.sbh [apb_scoreboard] [SB] WRITE addr=1f data=58a13f7
UVM_INFO testbench.sv(448) @ 405: uvm_test_top.envh.agh.monh [apb_monitor] TRANSFER=1|PADDR=e9|WDATA=8cf3edb6|PRDATA=0|prdata_out=0|PSLVERR_out=0|READY=1
UVM_INFO testbench.sv(534) @ 405: uvm_test_top.envh.sbh [apb_scoreboard] PSLVERR MATCHED WITH EXPECTED ERROR
UVM_INFO testbench.sv(545) @ 405: uvm_test_top.envh.sbh [apb_scoreboard] [SB] WRITE addr=e9 data=8cf3edb6
UVM_INFO testbench.sv(448) @ 435: uvm_test_top.envh.agh.monh [apb_monitor] TRANSFER=1|PADDR=a3|WDATA=67fba8eb|PRDATA=0|prdata_out=0|PSLVERR_out=0|READY=1
UVM_INFO testbench.sv(534) @ 435: uvm_test_top.envh.sbh [apb_scoreboard] PSLVERR MATCHED WITH EXPECTED ERROR
UVM_INFO testbench.sv(545) @ 435: uvm_test_top.envh.sbh [apb_scoreboard] [SB] WRITE addr=a3 data=67fba8eb
UVM_INFO testbench.sv(448) @ 485: uvm_test_top.envh.agh.monh [apb_monitor] TRANSFER=1|PADDR=e0|WDATA=1e6485bb|PRDATA=0|prdata_out=0|PSLVERR_out=0|READY=1
UVM_INFO testbench.sv(534) @ 485: uvm_test_top.envh.sbh [apb_scoreboard] PSLVERR MATCHED WITH EXPECTED ERROR
UVM_INFO testbench.sv(545) @ 485: uvm_test_top.envh.sbh [apb_scoreboard] [SB] WRITE addr=e0 data=1e6485bb
UVM_INFO testbench.sv(448) @ 515: uvm_test_top.envh.agh.monh [apb_monitor] TRANSFER=1|PADDR=cb|WDATA=99b0bf30|PRDATA=0|prdata_out=0|PSLVERR_out=0|READY=1
UVM_INFO testbench.sv(534) @ 515: uvm_test_top.envh.sbh [apb_scoreboard] PSLVERR MATCHED WITH EXPECTED ERROR
UVM_INFO testbench.sv(545) @ 515: uvm_test_top.envh.sbh [apb_scoreboard] [SB] WRITE addr=cb data=99b0bf30
UVM_INFO testbench.sv(448) @ 545: uvm_test_top.envh.agh.monh [apb_monitor] TRANSFER=1|PADDR=a3|WDATA=1dc6625d|PRDATA=0|prdata_out=0|PSLVERR_out=0|READY=1
UVM_INFO testbench.sv(534) @ 545: uvm_test_top.envh.sbh [apb_scoreboard] PSLVERR MATCHED WITH EXPECTED ERROR
UVM_INFO testbench.sv(545) @ 545: uvm_test_top.envh.sbh [apb_scoreboard] [SB] WRITE addr=a3 data=1dc6625d
UVM_INFO testbench.sv(448) @ 575: uvm_test_top.envh.agh.monh [apb_monitor] TRANSFER=1|PADDR=98|WDATA=ca6da4ca|PRDATA=0|prdata_out=0|PSLVERR_out=0|READY=1
UVM_INFO testbench.sv(534) @ 575: uvm_test_top.envh.sbh [apb_scoreboard] PSLVERR MATCHED WITH EXPECTED ERROR
UVM_INFO testbench.sv(545) @ 575: uvm_test_top.envh.sbh [apb_scoreboard] [SB] WRITE addr=98 data=ca6da4ca
UVM_INFO testbench.sv(448) @ 605: uvm_test_top.envh.agh.monh [apb_monitor] TRANSFER=1|PADDR=ec|WDATA=7bd8f74a|PRDATA=0|prdata_out=0|PSLVERR_out=0|READY=1
UVM_INFO testbench.sv(534) @ 605: uvm_test_top.envh.sbh [apb_scoreboard] PSLVERR MATCHED WITH EXPECTED ERROR
UVM_INFO testbench.sv(545) @ 605: uvm_test_top.envh.sbh [apb_scoreboard] [SB] WRITE addr=ec data=7bd8f74a
UVM_INFO testbench.sv(448) @ 635: uvm_test_top.envh.agh.monh [apb_monitor] TRANSFER=1|PADDR=31|WDATA=b1980b50|PRDATA=0|prdata_out=0|PSLVERR_out=0|READY=1
UVM_INFO testbench.sv(534) @ 635: uvm_test_top.envh.sbh [apb_scoreboard] PSLVERR MATCHED WITH EXPECTED ERROR
UVM_INFO testbench.sv(545) @ 635: uvm_test_top.envh.sbh [apb_scoreboard] [SB] WRITE addr=31 data=b1980b50
UVM_INFO testbench.sv(448) @ 665: uvm_test_top.envh.agh.monh [apb_monitor] TRANSFER=1|PADDR=d1|WDATA=fa2e8e0b|PRDATA=0|prdata_out=0|PSLVERR_out=0|READY=1
UVM_INFO testbench.sv(534) @ 665: uvm_test_top.envh.sbh [apb_scoreboard] PSLVERR MATCHED WITH EXPECTED ERROR
UVM_INFO testbench.sv(545) @ 665: uvm_test_top.envh.sbh [apb_scoreboard] [SB] WRITE addr=d1 data=fa2e8e0b
UVM_INFO testbench.sv(448) @ 715: uvm_test_top.envh.agh.monh [apb_monitor] TRANSFER=1|PADDR=0|WDATA=a123b42f|PRDATA=0|prdata_out=0|PSLVERR_out=0|READY=1
UVM_INFO testbench.sv(534) @ 715: uvm_test_top.envh.sbh [apb_scoreboard] PSLVERR MATCHED WITH EXPECTED ERROR
UVM_INFO testbench.sv(545) @ 715: uvm_test_top.envh.sbh [apb_scoreboard] [SB] WRITE addr=0 data=a123b42f
UVM_INFO testbench.sv(448) @ 745: uvm_test_top.envh.agh.monh [apb_monitor] TRANSFER=1|PADDR=cb|WDATA=22c8e4d5|PRDATA=0|prdata_out=0|PSLVERR_out=0|READY=1
UVM_INFO testbench.sv(534) @ 745: uvm_test_top.envh.sbh [apb_scoreboard] PSLVERR MATCHED WITH EXPECTED ERROR
UVM_INFO testbench.sv(545) @ 745: uvm_test_top.envh.sbh [apb_scoreboard] [SB] WRITE addr=cb data=22c8e4d5
UVM_INFO testbench.sv(448) @ 775: uvm_test_top.envh.agh.monh [apb_monitor] TRANSFER=1|PADDR=42|WDATA=720681e7|PRDATA=0|prdata_out=0|PSLVERR_out=0|READY=1
UVM_INFO testbench.sv(534) @ 775: uvm_test_top.envh.sbh [apb_scoreboard] PSLVERR MATCHED WITH EXPECTED ERROR
UVM_INFO testbench.sv(545) @ 775: uvm_test_top.envh.sbh [apb_scoreboard] [SB] WRITE addr=42 data=720681e7
UVM_INFO testbench.sv(448) @ 805: uvm_test_top.envh.agh.monh [apb_monitor] TRANSFER=1|PADDR=cc|WDATA=5781118c|PRDATA=0|prdata_out=0|PSLVERR_out=0|READY=1
UVM_INFO testbench.sv(534) @ 805: uvm_test_top.envh.sbh [apb_scoreboard] PSLVERR MATCHED WITH EXPECTED ERROR
UVM_INFO testbench.sv(545) @ 805: uvm_test_top.envh.sbh [apb_scoreboard] [SB] WRITE addr=cc data=5781118c
UVM_INFO testbench.sv(448) @ 835: uvm_test_top.envh.agh.monh [apb_monitor] TRANSFER=1|PADDR=1f|WDATA=8a9a94be|PRDATA=0|prdata_out=0|PSLVERR_out=0|READY=1
UVM_INFO testbench.sv(534) @ 835: uvm_test_top.envh.sbh [apb_scoreboard] PSLVERR MATCHED WITH EXPECTED ERROR
UVM_INFO testbench.sv(545) @ 835: uvm_test_top.envh.sbh [apb_scoreboard] [SB] WRITE addr=1f data=8a9a94be
UVM_INFO testbench.sv(448) @ 865: uvm_test_top.envh.agh.monh [apb_monitor] TRANSFER=1|PADDR=22|WDATA=496d4d26|PRDATA=0|prdata_out=0|PSLVERR_out=0|READY=1
UVM_INFO testbench.sv(534) @ 865: uvm_test_top.envh.sbh [apb_scoreboard] PSLVERR MATCHED WITH EXPECTED ERROR
UVM_INFO testbench.sv(545) @ 865: uvm_test_top.envh.sbh [apb_scoreboard] [SB] WRITE addr=22 data=496d4d26
UVM_INFO testbench.sv(448) @ 895: uvm_test_top.envh.agh.monh [apb_monitor] TRANSFER=1|PADDR=bf|WDATA=f77f39b4|PRDATA=0|prdata_out=0|PSLVERR_out=0|READY=1
UVM_INFO testbench.sv(534) @ 895: uvm_test_top.envh.sbh [apb_scoreboard] PSLVERR MATCHED WITH EXPECTED ERROR
UVM_INFO testbench.sv(545) @ 895: uvm_test_top.envh.sbh [apb_scoreboard] [SB] WRITE addr=bf data=f77f39b4
UVM_INFO testbench.sv(448) @ 925: uvm_test_top.envh.agh.monh [apb_monitor] TRANSFER=1|PADDR=2f|WDATA=cf79c22f|PRDATA=0|prdata_out=0|PSLVERR_out=0|READY=1
UVM_INFO testbench.sv(534) @ 925: uvm_test_top.envh.sbh [apb_scoreboard] PSLVERR MATCHED WITH EXPECTED ERROR
UVM_INFO testbench.sv(545) @ 925: uvm_test_top.envh.sbh [apb_scoreboard] [SB] WRITE addr=2f data=cf79c22f
UVM_INFO testbench.sv(448) @ 955: uvm_test_top.envh.agh.monh [apb_monitor] TRANSFER=1|PADDR=84|WDATA=c00d2a6e|PRDATA=0|prdata_out=0|PSLVERR_out=0|READY=1
UVM_INFO testbench.sv(534) @ 955: uvm_test_top.envh.sbh [apb_scoreboard] PSLVERR MATCHED WITH EXPECTED ERROR
UVM_INFO testbench.sv(545) @ 955: uvm_test_top.envh.sbh [apb_scoreboard] [SB] WRITE addr=84 data=c00d2a6e
UVM_INFO testbench.sv(448) @ 985: uvm_test_top.envh.agh.monh [apb_monitor] TRANSFER=1|PADDR=dc|WDATA=a20ffb16|PRDATA=0|prdata_out=0|PSLVERR_out=0|READY=1
UVM_INFO testbench.sv(534) @ 985: uvm_test_top.envh.sbh [apb_scoreboard] PSLVERR MATCHED WITH EXPECTED ERROR
UVM_INFO testbench.sv(545) @ 985: uvm_test_top.envh.sbh [apb_scoreboard] [SB] WRITE addr=dc data=a20ffb16
UVM_INFO testbench.sv(448) @ 1035: uvm_test_top.envh.agh.monh [apb_monitor] TRANSFER=1|PADDR=0|WDATA=d41572b2|PRDATA=0|prdata_out=0|PSLVERR_out=0|READY=1
UVM_INFO testbench.sv(534) @ 1035: uvm_test_top.envh.sbh [apb_scoreboard] PSLVERR MATCHED WITH EXPECTED ERROR
UVM_INFO testbench.sv(545) @ 1035: uvm_test_top.envh.sbh [apb_scoreboard] [SB] WRITE addr=0 data=d41572b2
UVM_INFO testbench.sv(448) @ 1065: uvm_test_top.envh.agh.monh [apb_monitor] TRANSFER=1|PADDR=6e|WDATA=8f03328e|PRDATA=0|prdata_out=0|PSLVERR_out=0|READY=1
UVM_INFO testbench.sv(534) @ 1065: uvm_test_top.envh.sbh [apb_scoreboard] PSLVERR MATCHED WITH EXPECTED ERROR
UVM_INFO testbench.sv(545) @ 1065: uvm_test_top.envh.sbh [apb_scoreboard] [SB] WRITE addr=6e data=8f03328e
UVM_INFO testbench.sv(448) @ 1095: uvm_test_top.envh.agh.monh [apb_monitor] TRANSFER=1|PADDR=1d|WDATA=198eae82|PRDATA=0|prdata_out=0|PSLVERR_out=0|READY=1
UVM_INFO testbench.sv(534) @ 1095: uvm_test_top.envh.sbh [apb_scoreboard] PSLVERR MATCHED WITH EXPECTED ERROR
UVM_INFO testbench.sv(545) @ 1095: uvm_test_top.envh.sbh [apb_scoreboard] [SB] WRITE addr=1d data=198eae82
UVM_INFO testbench.sv(448) @ 1145: uvm_test_top.envh.agh.monh [apb_monitor] TRANSFER=1|PADDR=c0|WDATA=7756f097|PRDATA=0|prdata_out=0|PSLVERR_out=0|READY=1
UVM_INFO testbench.sv(534) @ 1145: uvm_test_top.envh.sbh [apb_scoreboard] PSLVERR MATCHED WITH EXPECTED ERROR
UVM_INFO testbench.sv(545) @ 1145: uvm_test_top.envh.sbh [apb_scoreboard] [SB] WRITE addr=c0 data=7756f097
UVM_INFO testbench.sv(448) @ 1175: uvm_test_top.envh.agh.monh [apb_monitor] TRANSFER=1|PADDR=c9|WDATA=9c3e27fb|PRDATA=0|prdata_out=0|PSLVERR_out=0|READY=1
UVM_INFO testbench.sv(534) @ 1175: uvm_test_top.envh.sbh [apb_scoreboard] PSLVERR MATCHED WITH EXPECTED ERROR
UVM_INFO testbench.sv(545) @ 1175: uvm_test_top.envh.sbh [apb_scoreboard] [SB] WRITE addr=c9 data=9c3e27fb
UVM_INFO testbench.sv(448) @ 1205: uvm_test_top.envh.agh.monh [apb_monitor] TRANSFER=1|PADDR=9d|WDATA=1f037dfa|PRDATA=0|prdata_out=0|PSLVERR_out=0|READY=1
UVM_INFO testbench.sv(534) @ 1205: uvm_test_top.envh.sbh [apb_scoreboard] PSLVERR MATCHED WITH EXPECTED ERROR
UVM_INFO testbench.sv(545) @ 1205: uvm_test_top.envh.sbh [apb_scoreboard] [SB] WRITE addr=9d data=1f037dfa
UVM_INFO testbench.sv(448) @ 1235: uvm_test_top.envh.agh.monh [apb_monitor] TRANSFER=1|PADDR=25|WDATA=29ed834f|PRDATA=0|prdata_out=0|PSLVERR_out=0|READY=1
UVM_INFO testbench.sv(534) @ 1235: uvm_test_top.envh.sbh [apb_scoreboard] PSLVERR MATCHED WITH EXPECTED ERROR
UVM_INFO testbench.sv(545) @ 1235: uvm_test_top.envh.sbh [apb_scoreboard] [SB] WRITE addr=25 data=29ed834f
UVM_INFO testbench.sv(448) @ 1265: uvm_test_top.envh.agh.monh [apb_monitor] TRANSFER=1|PADDR=9f845ff1|WDATA=a2e9bbb8|PRDATA=0|prdata_out=0|PSLVERR_out=0|READY=1
UVM_INFO testbench.sv(534) @ 1265: uvm_test_top.envh.sbh [apb_scoreboard] PSLVERR MATCHED WITH EXPECTED ERROR
UVM_INFO testbench.sv(556) @ 1265: uvm_test_top.envh.sbh [apb_scoreboard] [SB] MATCH addr=f1 expected=0 actual=0
UVM_INFO testbench.sv(448) @ 1295: uvm_test_top.envh.agh.monh [apb_monitor] TRANSFER=1|PADDR=688cc89b|WDATA=89618f32|PRDATA=0|prdata_out=0|PSLVERR_out=1|READY=1
UVM_INFO testbench.sv(534) @ 1295: uvm_test_top.envh.sbh [apb_scoreboard] PSLVERR MATCHED WITH EXPECTED ERROR
UVM_INFO testbench.sv(556) @ 1295: uvm_test_top.envh.sbh [apb_scoreboard] [SB] MATCH addr=9b expected=0 actual=0
UVM_INFO testbench.sv(448) @ 1325: uvm_test_top.envh.agh.monh [apb_monitor] TRANSFER=1|PADDR=e9eb1ef3|WDATA=e4e66d05|PRDATA=0|prdata_out=0|PSLVERR_out=1|READY=1
UVM_INFO testbench.sv(534) @ 1325: uvm_test_top.envh.sbh [apb_scoreboard] PSLVERR MATCHED WITH EXPECTED ERROR
UVM_INFO testbench.sv(541) @ 1325: uvm_test_top.envh.sbh [apb_scoreboard] INVALID WRITE
UVM_INFO testbench.sv(448) @ 1355: uvm_test_top.envh.agh.monh [apb_monitor] TRANSFER=1|PADDR=173c9bca|WDATA=9c40a00f|PRDATA=0|prdata_out=0|PSLVERR_out=1|READY=1
UVM_INFO testbench.sv(534) @ 1355: uvm_test_top.envh.sbh [apb_scoreboard] PSLVERR MATCHED WITH EXPECTED ERROR
UVM_INFO testbench.sv(541) @ 1355: uvm_test_top.envh.sbh [apb_scoreboard] INVALID WRITE
UVM_INFO testbench.sv(448) @ 1385: uvm_test_top.envh.agh.monh [apb_monitor] TRANSFER=1|PADDR=606a179b|WDATA=1fa1aa17|PRDATA=0|prdata_out=0|PSLVERR_out=1|READY=1
UVM_INFO testbench.sv(534) @ 1385: uvm_test_top.envh.sbh [apb_scoreboard] PSLVERR MATCHED WITH EXPECTED ERROR
UVM_INFO testbench.sv(541) @ 1385: uvm_test_top.envh.sbh [apb_scoreboard] INVALID WRITE
UVM_INFO testbench.sv(448) @ 1415: uvm_test_top.envh.agh.monh [apb_monitor] TRANSFER=1|PADDR=87349b23|WDATA=ade74b49|PRDATA=0|prdata_out=0|PSLVERR_out=1|READY=1
UVM_INFO testbench.sv(534) @ 1415: uvm_test_top.envh.sbh [apb_scoreboard] PSLVERR MATCHED WITH EXPECTED ERROR
UVM_INFO testbench.sv(556) @ 1415: uvm_test_top.envh.sbh [apb_scoreboard] [SB] MATCH addr=23 expected=0 actual=0
UVM_INFO testbench.sv(448) @ 1445: uvm_test_top.envh.agh.monh [apb_monitor] TRANSFER=1|PADDR=48f6bfc4|WDATA=148659ee|PRDATA=0|prdata_out=0|PSLVERR_out=1|READY=1
UVM_INFO testbench.sv(534) @ 1445: uvm_test_top.envh.sbh [apb_scoreboard] PSLVERR MATCHED WITH EXPECTED ERROR
UVM_INFO testbench.sv(541) @ 1445: uvm_test_top.envh.sbh [apb_scoreboard] INVALID WRITE
UVM_INFO testbench.sv(448) @ 1475: uvm_test_top.envh.agh.monh [apb_monitor] TRANSFER=1|PADDR=dfc53f10|WDATA=c52e3ec6|PRDATA=0|prdata_out=0|PSLVERR_out=1|READY=1
UVM_INFO testbench.sv(534) @ 1475: uvm_test_top.envh.sbh [apb_scoreboard] PSLVERR MATCHED WITH EXPECTED ERROR
UVM_INFO testbench.sv(541) @ 1475: uvm_test_top.envh.sbh [apb_scoreboard] INVALID WRITE
UVM_INFO testbench.sv(448) @ 1505: uvm_test_top.envh.agh.monh [apb_monitor] TRANSFER=1|PADDR=6cc74512|WDATA=ccd28035|PRDATA=0|prdata_out=0|PSLVERR_out=1|READY=1
UVM_INFO testbench.sv(534) @ 1505: uvm_test_top.envh.sbh [apb_scoreboard] PSLVERR MATCHED WITH EXPECTED ERROR
UVM_INFO testbench.sv(556) @ 1505: uvm_test_top.envh.sbh [apb_scoreboard] [SB] MATCH addr=12 expected=0 actual=0
UVM_INFO testbench.sv(448) @ 1535: uvm_test_top.envh.agh.monh [apb_monitor] TRANSFER=1|PADDR=84e2f3f0|WDATA=4844aabf|PRDATA=0|prdata_out=0|PSLVERR_out=1|READY=1
UVM_INFO testbench.sv(534) @ 1535: uvm_test_top.envh.sbh [apb_scoreboard] PSLVERR MATCHED WITH EXPECTED ERROR
UVM_INFO testbench.sv(556) @ 1535: uvm_test_top.envh.sbh [apb_scoreboard] [SB] MATCH addr=f0 expected=0 actual=0
UVM_INFO testbench.sv(448) @ 1565: uvm_test_top.envh.agh.monh [apb_monitor] TRANSFER=1|PADDR=f4ba2a67|WDATA=aaf1155d|PRDATA=0|prdata_out=0|PSLVERR_out=1|READY=1
UVM_INFO testbench.sv(534) @ 1565: uvm_test_top.envh.sbh [apb_scoreboard] PSLVERR MATCHED WITH EXPECTED ERROR
UVM_INFO testbench.sv(556) @ 1565: uvm_test_top.envh.sbh [apb_scoreboard] [SB] MATCH addr=67 expected=0 actual=0
UVM_INFO testbench.sv(448) @ 1595: uvm_test_top.envh.agh.monh [apb_monitor] TRANSFER=1|PADDR=d7b670a9|WDATA=3a853d9e|PRDATA=0|prdata_out=0|PSLVERR_out=1|READY=1
UVM_INFO testbench.sv(534) @ 1595: uvm_test_top.envh.sbh [apb_scoreboard] PSLVERR MATCHED WITH EXPECTED ERROR
UVM_INFO testbench.sv(556) @ 1595: uvm_test_top.envh.sbh [apb_scoreboard] [SB] MATCH addr=a9 expected=0 actual=0
UVM_INFO testbench.sv(448) @ 1625: uvm_test_top.envh.agh.monh [apb_monitor] TRANSFER=1|PADDR=a437d6e6|WDATA=6e74ce81|PRDATA=0|prdata_out=0|PSLVERR_out=1|READY=1
UVM_INFO testbench.sv(534) @ 1625: uvm_test_top.envh.sbh [apb_scoreboard] PSLVERR MATCHED WITH EXPECTED ERROR
UVM_INFO testbench.sv(556) @ 1625: uvm_test_top.envh.sbh [apb_scoreboard] [SB] MATCH addr=e6 expected=0 actual=0
UVM_INFO testbench.sv(448) @ 1655: uvm_test_top.envh.agh.monh [apb_monitor] TRANSFER=1|PADDR=78ce8d34|WDATA=3aa31440|PRDATA=0|prdata_out=0|PSLVERR_out=1|READY=1
UVM_INFO testbench.sv(534) @ 1655: uvm_test_top.envh.sbh [apb_scoreboard] PSLVERR MATCHED WITH EXPECTED ERROR
UVM_INFO testbench.sv(556) @ 1655: uvm_test_top.envh.sbh [apb_scoreboard] [SB] MATCH addr=34 expected=0 actual=0
UVM_INFO testbench.sv(448) @ 1685: uvm_test_top.envh.agh.monh [apb_monitor] TRANSFER=1|PADDR=36fcb163|WDATA=4425e9ba|PRDATA=0|prdata_out=0|PSLVERR_out=1|READY=1
UVM_INFO testbench.sv(534) @ 1685: uvm_test_top.envh.sbh [apb_scoreboard] PSLVERR MATCHED WITH EXPECTED ERROR
UVM_INFO testbench.sv(556) @ 1685: uvm_test_top.envh.sbh [apb_scoreboard] [SB] MATCH addr=63 expected=0 actual=0
UVM_INFO testbench.sv(448) @ 1715: uvm_test_top.envh.agh.monh [apb_monitor] TRANSFER=1|PADDR=614b2888|WDATA=d41db253|PRDATA=0|prdata_out=0|PSLVERR_out=1|READY=1
UVM_INFO testbench.sv(534) @ 1715: uvm_test_top.envh.sbh [apb_scoreboard] PSLVERR MATCHED WITH EXPECTED ERROR
UVM_INFO testbench.sv(556) @ 1715: uvm_test_top.envh.sbh [apb_scoreboard] [SB] MATCH addr=88 expected=0 actual=0
UVM_INFO testbench.sv(448) @ 1745: uvm_test_top.envh.agh.monh [apb_monitor] TRANSFER=1|PADDR=e83f0e76|WDATA=dce1f82d|PRDATA=0|prdata_out=0|PSLVERR_out=1|READY=1
UVM_INFO testbench.sv(534) @ 1745: uvm_test_top.envh.sbh [apb_scoreboard] PSLVERR MATCHED WITH EXPECTED ERROR
UVM_INFO testbench.sv(556) @ 1745: uvm_test_top.envh.sbh [apb_scoreboard] [SB] MATCH addr=76 expected=0 actual=0
UVM_INFO testbench.sv(448) @ 1775: uvm_test_top.envh.agh.monh [apb_monitor] TRANSFER=1|PADDR=dc4888b0|WDATA=dbd7d618|PRDATA=0|prdata_out=0|PSLVERR_out=1|READY=1
UVM_INFO testbench.sv(534) @ 1775: uvm_test_top.envh.sbh [apb_scoreboard] PSLVERR MATCHED WITH EXPECTED ERROR
UVM_INFO testbench.sv(556) @ 1775: uvm_test_top.envh.sbh [apb_scoreboard] [SB] MATCH addr=b0 expected=0 actual=0
UVM_INFO testbench.sv(448) @ 1805: uvm_test_top.envh.agh.monh [apb_monitor] TRANSFER=1|PADDR=4306f983|WDATA=bb2444c4|PRDATA=0|prdata_out=0|PSLVERR_out=1|READY=1
UVM_INFO testbench.sv(534) @ 1805: uvm_test_top.envh.sbh [apb_scoreboard] PSLVERR MATCHED WITH EXPECTED ERROR
UVM_INFO testbench.sv(541) @ 1805: uvm_test_top.envh.sbh [apb_scoreboard] INVALID WRITE
UVM_INFO testbench.sv(448) @ 1835: uvm_test_top.envh.agh.monh [apb_monitor] TRANSFER=1|PADDR=47745aa7|WDATA=97f7c813|PRDATA=0|prdata_out=0|PSLVERR_out=1|READY=1
UVM_INFO testbench.sv(534) @ 1835: uvm_test_top.envh.sbh [apb_scoreboard] PSLVERR MATCHED WITH EXPECTED ERROR
UVM_INFO testbench.sv(556) @ 1835: uvm_test_top.envh.sbh [apb_scoreboard] [SB] MATCH addr=a7 expected=0 actual=0
UVM_INFO testbench.sv(448) @ 1865: uvm_test_top.envh.agh.monh [apb_monitor] TRANSFER=1|PADDR=954160d3|WDATA=416ed02|PRDATA=0|prdata_out=0|PSLVERR_out=1|READY=1
UVM_INFO testbench.sv(534) @ 1865: uvm_test_top.envh.sbh [apb_scoreboard] PSLVERR MATCHED WITH EXPECTED ERROR
UVM_INFO testbench.sv(541) @ 1865: uvm_test_top.envh.sbh [apb_scoreboard] INVALID WRITE
UVM_INFO testbench.sv(448) @ 1895: uvm_test_top.envh.agh.monh [apb_monitor] TRANSFER=1|PADDR=2a99f0f9|WDATA=aa8c2f69|PRDATA=0|prdata_out=0|PSLVERR_out=1|READY=1
UVM_INFO testbench.sv(534) @ 1895: uvm_test_top.envh.sbh [apb_scoreboard] PSLVERR MATCHED WITH EXPECTED ERROR
UVM_INFO testbench.sv(541) @ 1895: uvm_test_top.envh.sbh [apb_scoreboard] INVALID WRITE
UVM_INFO testbench.sv(448) @ 1925: uvm_test_top.envh.agh.monh [apb_monitor] TRANSFER=1|PADDR=11a7822c|WDATA=3d8c9b69|PRDATA=0|prdata_out=0|PSLVERR_out=1|READY=1
UVM_INFO testbench.sv(534) @ 1925: uvm_test_top.envh.sbh [apb_scoreboard] PSLVERR MATCHED WITH EXPECTED ERROR
UVM_INFO testbench.sv(541) @ 1925: uvm_test_top.envh.sbh [apb_scoreboard] INVALID WRITE
UVM_INFO testbench.sv(448) @ 1955: uvm_test_top.envh.agh.monh [apb_monitor] TRANSFER=1|PADDR=c47d430e|WDATA=77f7de90|PRDATA=0|prdata_out=0|PSLVERR_out=1|READY=1
UVM_INFO testbench.sv(534) @ 1955: uvm_test_top.envh.sbh [apb_scoreboard] PSLVERR MATCHED WITH EXPECTED ERROR
UVM_INFO testbench.sv(556) @ 1955: uvm_test_top.envh.sbh [apb_scoreboard] [SB] MATCH addr=e expected=0 actual=0
UVM_INFO testbench.sv(448) @ 1985: uvm_test_top.envh.agh.monh [apb_monitor] TRANSFER=1|PADDR=6bd0f645|WDATA=b95ad653|PRDATA=0|prdata_out=0|PSLVERR_out=1|READY=1
UVM_INFO testbench.sv(534) @ 1985: uvm_test_top.envh.sbh [apb_scoreboard] PSLVERR MATCHED WITH EXPECTED ERROR
UVM_INFO testbench.sv(556) @ 1985: uvm_test_top.envh.sbh [apb_scoreboard] [SB] MATCH addr=45 expected=0 actual=0
UVM_INFO testbench.sv(448) @ 2015: uvm_test_top.envh.agh.monh [apb_monitor] TRANSFER=1|PADDR=fab4cac4|WDATA=47c25a4f|PRDATA=0|prdata_out=0|PSLVERR_out=1|READY=1
UVM_INFO testbench.sv(534) @ 2015: uvm_test_top.envh.sbh [apb_scoreboard] PSLVERR MATCHED WITH EXPECTED ERROR
UVM_INFO testbench.sv(541) @ 2015: uvm_test_top.envh.sbh [apb_scoreboard] INVALID WRITE
UVM_INFO testbench.sv(448) @ 2045: uvm_test_top.envh.agh.monh [apb_monitor] TRANSFER=1|PADDR=66abaee8|WDATA=153581cf|PRDATA=0|prdata_out=0|PSLVERR_out=1|READY=1
UVM_INFO testbench.sv(534) @ 2045: uvm_test_top.envh.sbh [apb_scoreboard] PSLVERR MATCHED WITH EXPECTED ERROR
UVM_INFO testbench.sv(541) @ 2045: uvm_test_top.envh.sbh [apb_scoreboard] INVALID WRITE
UVM_INFO testbench.sv(448) @ 2075: uvm_test_top.envh.agh.monh [apb_monitor] TRANSFER=1|PADDR=1c3e8a1a|WDATA=7186c017|PRDATA=0|prdata_out=0|PSLVERR_out=1|READY=1
UVM_INFO testbench.sv(534) @ 2075: uvm_test_top.envh.sbh [apb_scoreboard] PSLVERR MATCHED WITH EXPECTED ERROR
UVM_INFO testbench.sv(541) @ 2075: uvm_test_top.envh.sbh [apb_scoreboard] INVALID WRITE
UVM_INFO testbench.sv(448) @ 2105: uvm_test_top.envh.agh.monh [apb_monitor] TRANSFER=1|PADDR=4b9ebc59|WDATA=a0f742d1|PRDATA=0|prdata_out=0|PSLVERR_out=1|READY=1
UVM_INFO testbench.sv(534) @ 2105: uvm_test_top.envh.sbh [apb_scoreboard] PSLVERR MATCHED WITH EXPECTED ERROR
UVM_INFO testbench.sv(556) @ 2105: uvm_test_top.envh.sbh [apb_scoreboard] [SB] MATCH addr=59 expected=0 actual=0
UVM_INFO testbench.sv(448) @ 2135: uvm_test_top.envh.agh.monh [apb_monitor] TRANSFER=1|PADDR=7ba8d14a|WDATA=8b218389|PRDATA=0|prdata_out=0|PSLVERR_out=1|READY=1
UVM_INFO testbench.sv(534) @ 2135: uvm_test_top.envh.sbh [apb_scoreboard] PSLVERR MATCHED WITH EXPECTED ERROR
UVM_INFO testbench.sv(541) @ 2135: uvm_test_top.envh.sbh [apb_scoreboard] INVALID WRITE
UVM_INFO testbench.sv(448) @ 2185: uvm_test_top.envh.agh.monh [apb_monitor] TRANSFER=1|PADDR=70|WDATA=7abcecc0|PRDATA=0|prdata_out=0|PSLVERR_out=1|READY=1
UVM_INFO testbench.sv(534) @ 2185: uvm_test_top.envh.sbh [apb_scoreboard] PSLVERR MATCHED WITH EXPECTED ERROR
UVM_INFO testbench.sv(556) @ 2185: uvm_test_top.envh.sbh [apb_scoreboard] [SB] MATCH addr=70 expected=0 actual=0
UVM_INFO testbench.sv(448) @ 2235: uvm_test_top.envh.agh.monh [apb_monitor] TRANSFER=1|PADDR=e0|WDATA=c1e0eed6|PRDATA=1e6485bb|prdata_out=0|PSLVERR_out=0|READY=1
UVM_INFO testbench.sv(534) @ 2235: uvm_test_top.envh.sbh [apb_scoreboard] PSLVERR MATCHED WITH EXPECTED ERROR
UVM_INFO testbench.sv(556) @ 2235: uvm_test_top.envh.sbh [apb_scoreboard] [SB] MATCH addr=e0 expected=1e6485bb actual=1e6485bb
UVM_INFO testbench.sv(448) @ 2265: uvm_test_top.envh.agh.monh [apb_monitor] TRANSFER=1|PADDR=1b|WDATA=a8b5fd2f|PRDATA=0|prdata_out=1e6485bb|PSLVERR_out=0|READY=1
UVM_INFO testbench.sv(534) @ 2265: uvm_test_top.envh.sbh [apb_scoreboard] PSLVERR MATCHED WITH EXPECTED ERROR
UVM_INFO testbench.sv(556) @ 2265: uvm_test_top.envh.sbh [apb_scoreboard] [SB] MATCH addr=1b expected=0 actual=0
UVM_INFO testbench.sv(448) @ 2295: uvm_test_top.envh.agh.monh [apb_monitor] TRANSFER=1|PADDR=27|WDATA=d91e2df6|PRDATA=0|prdata_out=0|PSLVERR_out=0|READY=1
UVM_INFO testbench.sv(534) @ 2295: uvm_test_top.envh.sbh [apb_scoreboard] PSLVERR MATCHED WITH EXPECTED ERROR
UVM_INFO testbench.sv(556) @ 2295: uvm_test_top.envh.sbh [apb_scoreboard] [SB] MATCH addr=27 expected=0 actual=0
UVM_INFO testbench.sv(448) @ 2325: uvm_test_top.envh.agh.monh [apb_monitor] TRANSFER=1|PADDR=dd|WDATA=e0a9915f|PRDATA=0|prdata_out=0|PSLVERR_out=0|READY=1
UVM_INFO testbench.sv(534) @ 2325: uvm_test_top.envh.sbh [apb_scoreboard] PSLVERR MATCHED WITH EXPECTED ERROR
UVM_INFO testbench.sv(556) @ 2325: uvm_test_top.envh.sbh [apb_scoreboard] [SB] MATCH addr=dd expected=0 actual=0
UVM_INFO testbench.sv(448) @ 2355: uvm_test_top.envh.agh.monh [apb_monitor] TRANSFER=1|PADDR=e1|WDATA=953da13b|PRDATA=0|prdata_out=0|PSLVERR_out=0|READY=1
UVM_INFO testbench.sv(534) @ 2355: uvm_test_top.envh.sbh [apb_scoreboard] PSLVERR MATCHED WITH EXPECTED ERROR
UVM_INFO testbench.sv(556) @ 2355: uvm_test_top.envh.sbh [apb_scoreboard] [SB] MATCH addr=e1 expected=0 actual=0
UVM_INFO testbench.sv(448) @ 2385: uvm_test_top.envh.agh.monh [apb_monitor] TRANSFER=1|PADDR=49|WDATA=bd0d4c36|PRDATA=0|prdata_out=0|PSLVERR_out=0|READY=1
UVM_INFO testbench.sv(534) @ 2385: uvm_test_top.envh.sbh [apb_scoreboard] PSLVERR MATCHED WITH EXPECTED ERROR
UVM_INFO testbench.sv(556) @ 2385: uvm_test_top.envh.sbh [apb_scoreboard] [SB] MATCH addr=49 expected=0 actual=0
UVM_INFO testbench.sv(448) @ 2435: uvm_test_top.envh.agh.monh [apb_monitor] TRANSFER=1|PADDR=90|WDATA=6c80e6c2|PRDATA=0|prdata_out=0|PSLVERR_out=0|READY=1
UVM_INFO testbench.sv(534) @ 2435: uvm_test_top.envh.sbh [apb_scoreboard] PSLVERR MATCHED WITH EXPECTED ERROR
UVM_INFO testbench.sv(556) @ 2435: uvm_test_top.envh.sbh [apb_scoreboard] [SB] MATCH addr=90 expected=0 actual=0
UVM_INFO testbench.sv(448) @ 2465: uvm_test_top.envh.agh.monh [apb_monitor] TRANSFER=1|PADDR=c9|WDATA=6a43aea0|PRDATA=9c3e27fb|prdata_out=0|PSLVERR_out=0|READY=1
UVM_INFO testbench.sv(534) @ 2465: uvm_test_top.envh.sbh [apb_scoreboard] PSLVERR MATCHED WITH EXPECTED ERROR
UVM_INFO testbench.sv(556) @ 2465: uvm_test_top.envh.sbh [apb_scoreboard] [SB] MATCH addr=c9 expected=9c3e27fb actual=9c3e27fb
UVM_INFO testbench.sv(448) @ 2495: uvm_test_top.envh.agh.monh [apb_monitor] TRANSFER=1|PADDR=ca|WDATA=b29c20a8|PRDATA=0|prdata_out=9c3e27fb|PSLVERR_out=0|READY=1
UVM_INFO testbench.sv(534) @ 2495: uvm_test_top.envh.sbh [apb_scoreboard] PSLVERR MATCHED WITH EXPECTED ERROR
UVM_INFO testbench.sv(556) @ 2495: uvm_test_top.envh.sbh [apb_scoreboard] [SB] MATCH addr=ca expected=0 actual=0
UVM_INFO testbench.sv(448) @ 2525: uvm_test_top.envh.agh.monh [apb_monitor] TRANSFER=1|PADDR=98|WDATA=1ae172da|PRDATA=ca6da4ca|prdata_out=0|PSLVERR_out=0|READY=1
UVM_INFO testbench.sv(534) @ 2525: uvm_test_top.envh.sbh [apb_scoreboard] PSLVERR MATCHED WITH EXPECTED ERROR
UVM_INFO testbench.sv(556) @ 2525: uvm_test_top.envh.sbh [apb_scoreboard] [SB] MATCH addr=98 expected=ca6da4ca actual=ca6da4ca
UVM_INFO testbench.sv(448) @ 2555: uvm_test_top.envh.agh.monh [apb_monitor] TRANSFER=1|PADDR=f6|WDATA=79bad45c|PRDATA=0|prdata_out=ca6da4ca|PSLVERR_out=0|READY=1
UVM_INFO testbench.sv(534) @ 2555: uvm_test_top.envh.sbh [apb_scoreboard] PSLVERR MATCHED WITH EXPECTED ERROR
UVM_INFO testbench.sv(556) @ 2555: uvm_test_top.envh.sbh [apb_scoreboard] [SB] MATCH addr=f6 expected=0 actual=0
UVM_INFO testbench.sv(448) @ 2585: uvm_test_top.envh.agh.monh [apb_monitor] TRANSFER=1|PADDR=e5|WDATA=438d7660|PRDATA=0|prdata_out=0|PSLVERR_out=0|READY=1
UVM_INFO testbench.sv(534) @ 2585: uvm_test_top.envh.sbh [apb_scoreboard] PSLVERR MATCHED WITH EXPECTED ERROR
UVM_INFO testbench.sv(556) @ 2585: uvm_test_top.envh.sbh [apb_scoreboard] [SB] MATCH addr=e5 expected=0 actual=0
UVM_INFO testbench.sv(448) @ 2615: uvm_test_top.envh.agh.monh [apb_monitor] TRANSFER=1|PADDR=ab|WDATA=c37e6514|PRDATA=bbdfdfdd|prdata_out=0|PSLVERR_out=0|READY=1
UVM_INFO testbench.sv(534) @ 2615: uvm_test_top.envh.sbh [apb_scoreboard] PSLVERR MATCHED WITH EXPECTED ERROR
UVM_INFO testbench.sv(556) @ 2615: uvm_test_top.envh.sbh [apb_scoreboard] [SB] MATCH addr=ab expected=bbdfdfdd actual=bbdfdfdd
UVM_INFO testbench.sv(448) @ 2645: uvm_test_top.envh.agh.monh [apb_monitor] TRANSFER=1|PADDR=d6|WDATA=4c7631d2|PRDATA=0|prdata_out=bbdfdfdd|PSLVERR_out=0|READY=1
UVM_INFO testbench.sv(534) @ 2645: uvm_test_top.envh.sbh [apb_scoreboard] PSLVERR MATCHED WITH EXPECTED ERROR
UVM_INFO testbench.sv(556) @ 2645: uvm_test_top.envh.sbh [apb_scoreboard] [SB] MATCH addr=d6 expected=0 actual=0
UVM_INFO testbench.sv(448) @ 2675: uvm_test_top.envh.agh.monh [apb_monitor] TRANSFER=1|PADDR=aa|WDATA=4391dec5|PRDATA=0|prdata_out=0|PSLVERR_out=0|READY=1
UVM_INFO testbench.sv(534) @ 2675: uvm_test_top.envh.sbh [apb_scoreboard] PSLVERR MATCHED WITH EXPECTED ERROR
UVM_INFO testbench.sv(556) @ 2675: uvm_test_top.envh.sbh [apb_scoreboard] [SB] MATCH addr=aa expected=0 actual=0
UVM_INFO testbench.sv(448) @ 2705: uvm_test_top.envh.agh.monh [apb_monitor] TRANSFER=1|PADDR=f7|WDATA=e86aafd7|PRDATA=0|prdata_out=0|PSLVERR_out=0|READY=1
UVM_INFO testbench.sv(534) @ 2705: uvm_test_top.envh.sbh [apb_scoreboard] PSLVERR MATCHED WITH EXPECTED ERROR
UVM_INFO testbench.sv(556) @ 2705: uvm_test_top.envh.sbh [apb_scoreboard] [SB] MATCH addr=f7 expected=0 actual=0
UVM_INFO testbench.sv(448) @ 2735: uvm_test_top.envh.agh.monh [apb_monitor] TRANSFER=1|PADDR=27|WDATA=4eacd96d|PRDATA=0|prdata_out=0|PSLVERR_out=0|READY=1
UVM_INFO testbench.sv(534) @ 2735: uvm_test_top.envh.sbh [apb_scoreboard] PSLVERR MATCHED WITH EXPECTED ERROR
UVM_INFO testbench.sv(556) @ 2735: uvm_test_top.envh.sbh [apb_scoreboard] [SB] MATCH addr=27 expected=0 actual=0
UVM_INFO testbench.sv(448) @ 2765: uvm_test_top.envh.agh.monh [apb_monitor] TRANSFER=1|PADDR=f3|WDATA=393c5558|PRDATA=0|prdata_out=0|PSLVERR_out=0|READY=1
UVM_INFO testbench.sv(534) @ 2765: uvm_test_top.envh.sbh [apb_scoreboard] PSLVERR MATCHED WITH EXPECTED ERROR
UVM_INFO testbench.sv(556) @ 2765: uvm_test_top.envh.sbh [apb_scoreboard] [SB] MATCH addr=f3 expected=0 actual=0
UVM_INFO testbench.sv(448) @ 2795: uvm_test_top.envh.agh.monh [apb_monitor] TRANSFER=1|PADDR=d|WDATA=4d75266f|PRDATA=0|prdata_out=0|PSLVERR_out=0|READY=1
UVM_INFO testbench.sv(534) @ 2795: uvm_test_top.envh.sbh [apb_scoreboard] PSLVERR MATCHED WITH EXPECTED ERROR
UVM_INFO testbench.sv(556) @ 2795: uvm_test_top.envh.sbh [apb_scoreboard] [SB] MATCH addr=d expected=0 actual=0
UVM_INFO testbench.sv(448) @ 2825: uvm_test_top.envh.agh.monh [apb_monitor] TRANSFER=1|PADDR=fe|WDATA=8fe26806|PRDATA=0|prdata_out=0|PSLVERR_out=0|READY=1
UVM_INFO testbench.sv(534) @ 2825: uvm_test_top.envh.sbh [apb_scoreboard] PSLVERR MATCHED WITH EXPECTED ERROR
UVM_INFO testbench.sv(556) @ 2825: uvm_test_top.envh.sbh [apb_scoreboard] [SB] MATCH addr=fe expected=0 actual=0
UVM_INFO testbench.sv(448) @ 2855: uvm_test_top.envh.agh.monh [apb_monitor] TRANSFER=1|PADDR=78|WDATA=42f90f08|PRDATA=0|prdata_out=0|PSLVERR_out=0|READY=1
UVM_INFO testbench.sv(534) @ 2855: uvm_test_top.envh.sbh [apb_scoreboard] PSLVERR MATCHED WITH EXPECTED ERROR
UVM_INFO testbench.sv(556) @ 2855: uvm_test_top.envh.sbh [apb_scoreboard] [SB] MATCH addr=78 expected=0 actual=0
UVM_INFO testbench.sv(448) @ 2885: uvm_test_top.envh.agh.monh [apb_monitor] TRANSFER=1|PADDR=3c|WDATA=e24981b2|PRDATA=0|prdata_out=0|PSLVERR_out=0|READY=1
UVM_INFO testbench.sv(534) @ 2885: uvm_test_top.envh.sbh [apb_scoreboard] PSLVERR MATCHED WITH EXPECTED ERROR
UVM_INFO testbench.sv(556) @ 2885: uvm_test_top.envh.sbh [apb_scoreboard] [SB] MATCH addr=3c expected=0 actual=0
UVM_INFO testbench.sv(448) @ 2915: uvm_test_top.envh.agh.monh [apb_monitor] TRANSFER=1|PADDR=91|WDATA=40ed1662|PRDATA=0|prdata_out=0|PSLVERR_out=0|READY=1
UVM_INFO testbench.sv(534) @ 2915: uvm_test_top.envh.sbh [apb_scoreboard] PSLVERR MATCHED WITH EXPECTED ERROR
UVM_INFO testbench.sv(556) @ 2915: uvm_test_top.envh.sbh [apb_scoreboard] [SB] MATCH addr=91 expected=0 actual=0
UVM_INFO testbench.sv(448) @ 2945: uvm_test_top.envh.agh.monh [apb_monitor] TRANSFER=1|PADDR=71|WDATA=2fee3ba6|PRDATA=0|prdata_out=0|PSLVERR_out=0|READY=1
UVM_INFO testbench.sv(534) @ 2945: uvm_test_top.envh.sbh [apb_scoreboard] PSLVERR MATCHED WITH EXPECTED ERROR
UVM_INFO testbench.sv(556) @ 2945: uvm_test_top.envh.sbh [apb_scoreboard] [SB] MATCH addr=71 expected=0 actual=0
UVM_INFO testbench.sv(448) @ 2975: uvm_test_top.envh.agh.monh [apb_monitor] TRANSFER=1|PADDR=af|WDATA=3c8c243e|PRDATA=0|prdata_out=0|PSLVERR_out=0|READY=1
UVM_INFO testbench.sv(534) @ 2975: uvm_test_top.envh.sbh [apb_scoreboard] PSLVERR MATCHED WITH EXPECTED ERROR
UVM_INFO testbench.sv(556) @ 2975: uvm_test_top.envh.sbh [apb_scoreboard] [SB] MATCH addr=af expected=0 actual=0
UVM_INFO testbench.sv(448) @ 3005: uvm_test_top.envh.agh.monh [apb_monitor] TRANSFER=1|PADDR=b8|WDATA=34ec1712|PRDATA=0|prdata_out=0|PSLVERR_out=0|READY=1
UVM_INFO testbench.sv(534) @ 3005: uvm_test_top.envh.sbh [apb_scoreboard] PSLVERR MATCHED WITH EXPECTED ERROR
UVM_INFO testbench.sv(556) @ 3005: uvm_test_top.envh.sbh [apb_scoreboard] [SB] MATCH addr=b8 expected=0 actual=0
UVM_INFO testbench.sv(448) @ 3055: uvm_test_top.envh.agh.monh [apb_monitor] TRANSFER=1|PADDR=20|WDATA=80b34c2|PRDATA=0|prdata_out=0|PSLVERR_out=0|READY=1
UVM_INFO testbench.sv(534) @ 3055: uvm_test_top.envh.sbh [apb_scoreboard] PSLVERR MATCHED WITH EXPECTED ERROR
UVM_INFO testbench.sv(556) @ 3055: uvm_test_top.envh.sbh [apb_scoreboard] [SB] MATCH addr=20 expected=0 actual=0
UVM_INFO testbench.sv(448) @ 3085: uvm_test_top.envh.agh.monh [apb_monitor] TRANSFER=1|PADDR=5|WDATA=93ce3865|PRDATA=0|prdata_out=0|PSLVERR_out=0|READY=1
UVM_INFO testbench.sv(534) @ 3085: uvm_test_top.envh.sbh [apb_scoreboard] PSLVERR MATCHED WITH EXPECTED ERROR
UVM_INFO testbench.sv(556) @ 3085: uvm_test_top.envh.sbh [apb_scoreboard] [SB] MATCH addr=5 expected=0 actual=0
UVM_INFO testbench.sv(448) @ 3115: uvm_test_top.envh.agh.monh [apb_monitor] TRANSFER=1|PADDR=35|WDATA=5a64de33|PRDATA=0|prdata_out=0|PSLVERR_out=0|READY=1
UVM_INFO testbench.sv(534) @ 3115: uvm_test_top.envh.sbh [apb_scoreboard] PSLVERR MATCHED WITH EXPECTED ERROR
UVM_INFO testbench.sv(556) @ 3115: uvm_test_top.envh.sbh [apb_scoreboard] [SB] MATCH addr=35 expected=0 actual=0
UVM_INFO /apps/vcsmx/vcs/X-2025.06-SP1//etc/uvm-1.2/src/base/uvm_objection.svh(1276) @ 3115: reporter [TEST_DONE]

UVM_INFO testbench.sv(382) @ 3115: uvm_test_top.envh.acc [apb_cov_collector] total coverage 100.00%
UVM_INFO testbench.sv(383) @ 3115: uvm_test_top.envh.acc [apb_cov_collector] PWRITE coverage 100.00%
UVM_INFO testbench.sv(384) @ 3115: uvm_test_top.envh.acc [apb_cov_collector] PWDATA coverage 100.00%
UVM_INFO testbench.sv(385) @ 3115: uvm_test_top.envh.acc [apb_cov_collector] PADDR coverage 100.00%
UVM_INFO testbench.sv(386) @ 3115: uvm_test_top.envh.acc [apb_cov_collector] CROSS WAIT coverage 100.00%
UVM_INFO testbench.sv(387) @ 3115: uvm_test_top.envh.acc [apb_cov_collector] CROSS ERROR coverage 100.00%

UVM_INFO testbench.sv(573) @ 3115: uvm_test_top.envh.sbh [apb_scoreboard] TOTAL TEST CASES=50 | PASS=50 | FAIL=0
UVM_INFO /apps/vcsmx/vcs/X-2025.06-SP1//etc/uvm-1.2/src/base/uvm_report_server.svh(904) @ 3115: reporter
